
**** 09/05/23 20:35:39 *********** Evaluation PSpice (Nov 1999) **************

 * C:\Users\SHINJAN SAHA\Documents\PSpice program\DCTL.sch


 ****     CIRCUIT DESCRIPTION


******************************************************************************




* Schematics Version 9.1 - Web Update 1
* Tue Sep 05 20:35:22 2023



** Analysis setup **
.tran 0ns 1ms
.OP 


* From [PSPICE NETLIST] section of pspiceev.ini:
.lib "nom.lib"

.INC "DCTL.net"

**** INCLUDING DCTL.net ****
* Schematics Netlist *



Q_Q1         out $N_0001 0 Q2N3904
Q_Q2         out $N_0002 0 Q2N3904
R_R1         out 0  1k  
V_V1         int1 $N_0001 5V
V_V2         int2 $N_0002 5V

**** RESUMING DCTL.cir ****
.INC "DCTL.als"



**** INCLUDING DCTL.als ****
* Schematics Aliases *

.ALIASES
Q_Q1            Q1(c=out b=$N_0001 e=0 )
Q_Q2            Q2(c=out b=$N_0002 e=0 )
R_R1            R1(1=out 2=0 )
V_V1            V1(+=int1 -=$N_0001 )
V_V2            V2(+=int2 -=$N_0002 )
_    _(out=out)
_    _(int1=int1)
_    _(int2=int2)
.ENDALIASES


**** RESUMING DCTL.cir ****
.probe


.END

**** 09/05/23 20:35:39 *********** Evaluation PSpice (Nov 1999) **************

 * C:\Users\SHINJAN SAHA\Documents\PSpice program\DCTL.sch


 ****     BJT MODEL PARAMETERS


******************************************************************************




               Q2N3904         
               NPN             
          IS    6.734000E-15 
          BF  416.4          
          NF    1            
         VAF   74.03         
         IKF     .06678      
         ISE    6.734000E-15 
          NE    1.259        
          BR     .7371       
          NR    1            
          RB   10            
          RC    1            
         CJE    4.493000E-12 
         MJE     .2593       
         CJC    3.638000E-12 
         MJC     .3085       
          TF  301.200000E-12 
         XTF    2            
         VTF    4            
         ITF     .4          
          TR  239.500000E-09 
         XTB    1.5          
          CN    2.42         
           D     .87         


**** 09/05/23 20:35:39 *********** Evaluation PSpice (Nov 1999) **************

 * C:\Users\SHINJAN SAHA\Documents\PSpice program\DCTL.sch


 ****     SMALL SIGNAL BIAS SOLUTION       TEMPERATURE =   27.000 DEG C


******************************************************************************



 NODE   VOLTAGE     NODE   VOLTAGE     NODE   VOLTAGE     NODE   VOLTAGE


(  out) 44.46E-24  ( int1)    5.0000  ( int2)    5.0000  ($N_0001) 55.42E-15    

($N_0002) 55.42E-15                   




    VOLTAGE SOURCE CURRENTS
    NAME         CURRENT

    V_V1         0.000E+00
    V_V2         0.000E+00

    TOTAL POWER DISSIPATION   0.00E+00  WATTS


**** 09/05/23 20:35:39 *********** Evaluation PSpice (Nov 1999) **************

 * C:\Users\SHINJAN SAHA\Documents\PSpice program\DCTL.sch


 ****     OPERATING POINT INFORMATION      TEMPERATURE =   27.000 DEG C


******************************************************************************






**** BIPOLAR JUNCTION TRANSISTORS


NAME         Q_Q1        Q_Q2      
MODEL        Q2N3904     Q2N3904   
IB           1.06E-25    1.06E-25 
IC          -9.48E-26   -9.48E-26 
VBE          5.54E-14    5.54E-14 
VBC          5.54E-14    5.54E-14 
VCE          4.45E-23    4.45E-23 
BETADC      -9.48E-06   -9.48E-06 
GM           0.00E+00    0.00E+00 
RPI          4.77E+12    4.77E+12 
RX           1.00E+01    1.00E+01 
RO           7.93E+11    7.93E+11 
CBE          4.49E-12    4.49E-12 
CBC          3.64E-12    3.64E-12 
CJS          0.00E+00    0.00E+00 
BETAAC       0.00E+00    0.00E+00 
CBX/CBX2     0.00E+00    0.00E+00 
FT/FT2       0.00E+00    0.00E+00 


**** 09/05/23 20:35:39 *********** Evaluation PSpice (Nov 1999) **************

 * C:\Users\SHINJAN SAHA\Documents\PSpice program\DCTL.sch


 ****     INITIAL TRANSIENT SOLUTION       TEMPERATURE =   27.000 DEG C


******************************************************************************



 NODE   VOLTAGE     NODE   VOLTAGE     NODE   VOLTAGE     NODE   VOLTAGE


(  out) 44.46E-24  ( int1)    5.0000  ( int2)    5.0000  ($N_0001) 55.42E-15    

($N_0002) 55.42E-15                   




    VOLTAGE SOURCE CURRENTS
    NAME         CURRENT

    V_V1         0.000E+00
    V_V2         0.000E+00

    TOTAL POWER DISSIPATION   0.00E+00  WATTS



          JOB CONCLUDED

          TOTAL JOB TIME            0.00
